! Touchstone file export by IPKISS 
! Luceda port in1: mode 0:0 
! Luceda port in2: mode 0:1 
! Luceda port out1: mode 0:2 
! Luceda port out2: mode 0:3 
! Luceda port elec1: mode 0:4 
! Luceda port elec2: mode 0:5 
# GHz S MA R 50.0
192174.65256410255                     0.0                   0.0                   0.0                   0.0  0.068532947065167452    12.855861271503946   0.98403299396861743   -77.144138727277237                   0.0                   0.0                   0.0                   0.0 
                                       0.0                   0.0                   0.0                   0.0   0.98403299396861765   -77.144138727277237  0.068532947065167396     12.85586127394156                   0.0                   0.0                   0.0                   0.0 
                      0.068532947065167507    12.855861271503937   0.98403299396861743   -77.144138727277237                   0.0                   0.0                   0.0                   0.0                   0.0                   0.0                   0.0                   0.0 
                       0.98403299396861743   -77.144138727277237  0.068532947065167507    12.855861273941562                   0.0                   0.0                   0.0                   0.0                   0.0                   0.0                   0.0                   0.0 
                                       0.0                   0.0                   0.0                   0.0                   0.0                   0.0                   0.0                   0.0                   0.0                   0.0                   0.0                   0.0 
                                       0.0                   0.0                   0.0                   0.0                   0.0                   0.0                   0.0                   0.0                   0.0                   0.0                   0.0                   0.0 
192187.03415372723                     0.0                   0.0                   0.0                   0.0  0.067833481540629417    18.407941351501357   0.98408225694006712   -71.597969544494873                   0.0                   0.0                   0.0                   0.0 
                                       0.0                   0.0                   0.0                   0.0   0.98408225694006679   -71.597969544494873  0.067833481540629528    18.396119559508861                   0.0                   0.0                   0.0                   0.0 
                      0.067833481540629348    18.407941351501329   0.98408225694006701   -71.597969544494873                   0.0                   0.0                   0.0                   0.0                   0.0                   0.0                   0.0                   0.0 
                       0.98408225694006701   -71.597969544494873  0.067833481540629542    18.396119559508882                   0.0                   0.0                   0.0                   0.0                   0.0                   0.0                   0.0                   0.0 
                                       0.0                   0.0                   0.0                   0.0                   0.0                   0.0                   0.0                   0.0                   0.0                   0.0                   0.0                   0.0 
                                       0.0                   0.0                   0.0                   0.0                   0.0                   0.0                   0.0                   0.0                   0.0                   0.0                   0.0                   0.0 
192199.41733891753                     0.0                   0.0                   0.0                   0.0  0.067134221949390088     23.96069948361118   0.98413097357796941   -66.051124946259463                   0.0                   0.0                   0.0                   0.0 
                                       0.0                   0.0                   0.0                   0.0   0.98413097357796941   -66.051124946259463  0.067134221949390144    23.937050623869943                   0.0                   0.0                   0.0                   0.0 
                      0.067134221949389977    23.960699483611219   0.98413097357796941   -66.051124946259463                   0.0                   0.0                   0.0                   0.0                   0.0                   0.0                   0.0                   0.0 
                       0.98413097357796941   -66.051124946259463  0.067134221949390144    23.937050623869943                   0.0                   0.0                   0.0                   0.0                   0.0                   0.0                   0.0                   0.0 
                                       0.0                   0.0                   0.0                   0.0                   0.0                   0.0                   0.0                   0.0                   0.0                   0.0                   0.0                   0.0 
                                       0.0                   0.0                   0.0                   0.0                   0.0                   0.0                   0.0                   0.0                   0.0                   0.0                   0.0                   0.0 
192211.80211998196                     0.0                   0.0                   0.0                   0.0  0.066435168694010158    29.514135802377382   0.98417914434574738   -60.503604801969779                   0.0                   0.0                   0.0                   0.0 
                                       0.0                   0.0                   0.0                   0.0   0.98417914434574749   -60.503604801969779  0.066435168694010283    29.478654593683011                   0.0                   0.0                   0.0                   0.0 
                      0.066435168694010158    29.514135802377382   0.98417914434574738   -60.503604801969779                   0.0                   0.0                   0.0                   0.0                   0.0                   0.0                   0.0                   0.0 
                       0.98417914434574749   -60.503604801969779  0.066435168694010283    29.478654593683011                   0.0                   0.0                   0.0                   0.0                   0.0                   0.0                   0.0                   0.0 
                                       0.0                   0.0                   0.0                   0.0                   0.0                   0.0                   0.0                   0.0                   0.0                   0.0                   0.0                   0.0 
                                       0.0                   0.0                   0.0                   0.0                   0.0                   0.0                   0.0                   0.0                   0.0                   0.0                   0.0                   0.0 
192224.18849722904                     0.0                   0.0                   0.0                   0.0  0.065736322176323497    35.068250442100592   0.98422676970688949   -54.955408981042538                   0.0                   0.0                   0.0                   0.0 
                                       0.0                   0.0                   0.0                   0.0   0.98422676970688949   -54.955408981042538  0.065736322176323761    35.020931595814304                   0.0                   0.0                   0.0                   0.0 
                      0.065736322176323497    35.068250442100592   0.98422676970688949   -54.955408981042538                   0.0                   0.0                   0.0                   0.0                   0.0                   0.0                   0.0                   0.0 
                       0.98422676970688949   -54.955408981042538  0.065736322176323719    35.020931595814261                   0.0                   0.0                   0.0                   0.0                   0.0                   0.0                   0.0                   0.0 
                                       0.0                   0.0                   0.0                   0.0                   0.0                   0.0                   0.0                   0.0                   0.0                   0.0                   0.0                   0.0 
                                       0.0                   0.0                   0.0                   0.0                   0.0                   0.0                   0.0                   0.0                   0.0                   0.0                   0.0                   0.0 
192236.57647096732                     0.0                   0.0                   0.0                   0.0   0.06503768279743441    40.623043537092492   0.98427385012495083   -49.406537352868384                   0.0                   0.0                   0.0                   0.0 
                                       0.0                   0.0                   0.0                   0.0   0.98427385012495083   -49.406537352868384  0.065037682797434521    40.563881757170698                   0.0                   0.0                   0.0                   0.0 
                      0.065037682797434451    40.623043537092528   0.98427385012495072   -49.406537352868391                   0.0                   0.0                   0.0                   0.0                   0.0                   0.0                   0.0                   0.0 
                       0.98427385012495072   -49.406537352868391   0.06503768279743441    40.563881757170719                   0.0                   0.0                   0.0                   0.0                   0.0                   0.0                   0.0                   0.0 
                                       0.0                   0.0                   0.0                   0.0                   0.0                   0.0                   0.0                   0.0                   0.0                   0.0                   0.0                   0.0 
                                       0.0                   0.0                   0.0                   0.0                   0.0                   0.0                   0.0                   0.0                   0.0                   0.0                   0.0                   0.0 
192248.96604150554                     0.0                   0.0                   0.0                   0.0  0.064339250957712188    46.178515221899545   0.98432038606355121   -43.856989786737003                   0.0                   0.0                   0.0                   0.0 
                                       0.0                   0.0                   0.0                   0.0   0.98432038606355099   -43.856989786737003  0.064339250957712313    46.107505204626364                   0.0                   0.0                   0.0                   0.0 
                      0.064339250957712063    46.178515221899588   0.98432038606355121   -43.856989786737003                   0.0                   0.0                   0.0                   0.0                   0.0                   0.0                   0.0                   0.0 
                       0.98432038606355121   -43.856989786737003  0.064339250957712271    46.107505204626399                   0.0                   0.0                   0.0                   0.0                   0.0                   0.0                   0.0                   0.0 
                                       0.0                   0.0                   0.0                   0.0                   0.0                   0.0                   0.0                   0.0                   0.0                   0.0                   0.0                   0.0 
                                       0.0                   0.0                   0.0                   0.0                   0.0                   0.0                   0.0                   0.0                   0.0                   0.0                   0.0                   0.0 
192261.35720915243                     0.0                   0.0                   0.0                   0.0   0.06364102705680072    51.734665630941905    0.9843663779863725   -38.306766151978806                   0.0                   0.0                   0.0                   0.0 
                                       0.0                   0.0                   0.0                   0.0    0.9843663779863725   -38.306766151978799    0.0636410270568009    51.651802065100568                   0.0                   0.0                   0.0                   0.0 
                       0.06364102705680072    51.734665630941905    0.9843663779863725   -38.306766151978806                   0.0                   0.0                   0.0                   0.0                   0.0                   0.0                   0.0                   0.0 
                        0.9843663779863725   -38.306766151978806    0.0636410270568009    51.651802065100568                   0.0                   0.0                   0.0                   0.0                   0.0                   0.0                   0.0                   0.0 
                                       0.0                   0.0                   0.0                   0.0                   0.0                   0.0                   0.0                   0.0                   0.0                   0.0                   0.0                   0.0 
                                       0.0                   0.0                   0.0                   0.0                   0.0                   0.0                   0.0                   0.0                   0.0                   0.0                   0.0                   0.0 
192273.74997421689                     0.0                   0.0                   0.0                   0.0  0.062943011493615073    57.291494898601691   0.98441182635716229   -32.755866317845985                   0.0                   0.0                   0.0                   0.0 
                                       0.0                   0.0                   0.0                   0.0    0.9844118263571624   -32.755866317845985   0.06294301149361517    57.196772465706324                   0.0                   0.0                   0.0                   0.0 
                       0.06294301149361517    57.291494898601741   0.98441182635716218   -32.755866317845992                   0.0                   0.0                   0.0                   0.0                   0.0                   0.0                   0.0                   0.0 
                       0.98441182635716218   -32.755866317845992  0.062943011493615073    57.196772465706267                   0.0                   0.0                   0.0                   0.0                   0.0                   0.0                   0.0                   0.0 
                                       0.0                   0.0                   0.0                   0.0                   0.0                   0.0                   0.0                   0.0                   0.0                   0.0                   0.0                   0.0 
                                       0.0                   0.0                   0.0                   0.0                   0.0                   0.0                   0.0                   0.0                   0.0                   0.0                   0.0                   0.0 
192286.14433700769                     0.0                   0.0                   0.0                   0.0  0.062245204666342119     62.84900315944212    0.9844567316397278   -27.204290153597327                   0.0                   0.0                   0.0                   0.0 
                                       0.0                   0.0                   0.0                   0.0   0.98445673163972813   -27.204290153597331  0.062245204666342299    62.742416533363219                   0.0                   0.0                   0.0                   0.0 
                      0.062245204666342153    62.849003159442056    0.9844567316397278    -27.20429015359732                   0.0                   0.0                   0.0                   0.0                   0.0                   0.0                   0.0                   0.0 
                       0.98445673163972791   -27.204290153597324  0.062245204666342278    62.742416533363262                   0.0                   0.0                   0.0                   0.0                   0.0                   0.0                   0.0                   0.0 
                                       0.0                   0.0                   0.0                   0.0                   0.0                   0.0                   0.0                   0.0                   0.0                   0.0                   0.0                   0.0 
                                       0.0                   0.0                   0.0                   0.0                   0.0                   0.0                   0.0                   0.0                   0.0                   0.0                   0.0                   0.0 
192298.54029783394                     0.0                   0.0                   0.0                   0.0  0.061547606972437156    68.407190547848927   0.98450109429793953   -21.652037528397106                   0.0                   0.0                   0.0                   0.0 
                                       0.0                   0.0                   0.0                   0.0   0.98450109429793986   -21.652037528397102  0.061547606972437385    68.288734395356855                   0.0                   0.0                   0.0                   0.0 
                      0.061547606972437136    68.407190547848984   0.98450109429793953   -21.652037528397106                   0.0                   0.0                   0.0                   0.0                   0.0                   0.0                   0.0                   0.0 
                       0.98450109429793986   -21.652037528397106  0.061547606972437385    68.288734395356855                   0.0                   0.0                   0.0                   0.0                   0.0                   0.0                   0.0                   0.0 
                                       0.0                   0.0                   0.0                   0.0                   0.0                   0.0                   0.0                   0.0                   0.0                   0.0                   0.0                   0.0 
                                       0.0                   0.0                   0.0                   0.0                   0.0                   0.0                   0.0                   0.0                   0.0                   0.0                   0.0                   0.0 
192310.93785700473                     0.0                   0.0                   0.0                   0.0  0.060850218808633075    73.966057198333218   0.98454491479572659   -16.099108311419393                   0.0                   0.0                   0.0                   0.0 
                                       0.0                   0.0                   0.0                   0.0   0.98454491479572659   -16.099108311419393  0.060850218808633262    73.835726178827954                   0.0                   0.0                   0.0                   0.0 
                      0.060850218808633165    73.966057198333274   0.98454491479572659   -16.099108311419393                   0.0                   0.0                   0.0                   0.0                   0.0                   0.0                   0.0                   0.0 
