! Touchstone file export by IPKISS 
! Luceda port out1: mode 0:0 
! Luceda port out2: mode 0:1 
! Luceda port out3: mode 0:2 
! Luceda port out4: mode 0:3 
! Luceda port out5: mode 0:4 
! Luceda port out6: mode 0:5 
! Luceda port out7: mode 0:6 
! Luceda port out8: mode 0:7 
! Luceda port in: mode 0:8 
# GHz S MA R 50.0
189742.06202531647                     0.0                   0.0                   0.0                   0.0                   0.0                   0.0                   0.0                   0.0                   0.0                   0.0                   0.0                   0.0                   0.0                   0.0                   0.0                   0.0   0.33404557189017803   -97.609427940312372 
                                       0.0                   0.0                   0.0                   0.0                   0.0                   0.0                   0.0                   0.0                   0.0                   0.0                   0.0                   0.0                   0.0                   0.0                   0.0                   0.0   0.33404557189017803   -97.609427940312372 
                                       0.0                   0.0                   0.0                   0.0                   0.0                   0.0                   0.0                   0.0                   0.0                   0.0                   0.0                   0.0                   0.0                   0.0                   0.0                   0.0   0.33404557189017797   -97.609427940318881 
                                       0.0                   0.0                   0.0                   0.0                   0.0                   0.0                   0.0                   0.0                   0.0                   0.0                   0.0                   0.0                   0.0                   0.0                   0.0                   0.0   0.33404557189017797   -97.609427940318881 
                                       0.0                   0.0                   0.0                   0.0                   0.0                   0.0                   0.0                   0.0                   0.0                   0.0                   0.0                   0.0                   0.0                   0.0                   0.0                   0.0   0.33404557189017797   -97.609427940318881 
                                       0.0                   0.0                   0.0                   0.0                   0.0                   0.0                   0.0                   0.0                   0.0                   0.0                   0.0                   0.0                   0.0                   0.0                   0.0                   0.0   0.33404557189017797   -97.609427940318881 
                                       0.0                   0.0                   0.0                   0.0                   0.0                   0.0                   0.0                   0.0                   0.0                   0.0                   0.0                   0.0                   0.0                   0.0                   0.0                   0.0   0.33404557189017803   -97.609427940312372 
                                       0.0                   0.0                   0.0                   0.0                   0.0                   0.0                   0.0                   0.0                   0.0                   0.0                   0.0                   0.0                   0.0                   0.0                   0.0                   0.0   0.33404557189017803   -97.609427940312372 
                       0.33404557189017797   -97.609427940312358   0.33404557189017797   -97.609427940312358   0.33404557189017797   -97.609427940318895   0.33404557189017797   -97.609427940318895   0.33404557189017797   -97.609427940318895   0.33404557189017797   -97.609427940318895   0.33404557189017797   -97.609427940312358   0.33404557189017797   -97.609427940312358 0.0041816644849501814    107.35860510078548 
189751.66970479517                     0.0                   0.0                   0.0                   0.0                   0.0                   0.0                   0.0                   0.0                   0.0                   0.0                   0.0                   0.0                   0.0                   0.0                   0.0                   0.0   0.33404913668865804   -86.815274997160728 
                                       0.0                   0.0                   0.0                   0.0                   0.0                   0.0                   0.0                   0.0                   0.0                   0.0                   0.0                   0.0                   0.0                   0.0                   0.0                   0.0   0.33404913668865804   -86.815274997160728 
                                       0.0                   0.0                   0.0                   0.0                   0.0                   0.0                   0.0                   0.0                   0.0                   0.0                   0.0                   0.0                   0.0                   0.0                   0.0                   0.0    0.3340491366886581   -86.815274997167265 
                                       0.0                   0.0                   0.0                   0.0                   0.0                   0.0                   0.0                   0.0                   0.0                   0.0                   0.0                   0.0                   0.0                   0.0                   0.0                   0.0    0.3340491366886581   -86.815274997167265 
                                       0.0                   0.0                   0.0                   0.0                   0.0                   0.0                   0.0                   0.0                   0.0                   0.0                   0.0                   0.0                   0.0                   0.0                   0.0                   0.0    0.3340491366886581   -86.815274997167265 
                                       0.0                   0.0                   0.0                   0.0                   0.0                   0.0                   0.0                   0.0                   0.0                   0.0                   0.0                   0.0                   0.0                   0.0                   0.0                   0.0    0.3340491366886581   -86.815274997167265 
                                       0.0                   0.0                   0.0                   0.0                   0.0                   0.0                   0.0                   0.0                   0.0                   0.0                   0.0                   0.0                   0.0                   0.0                   0.0                   0.0   0.33404913668865804   -86.815274997160728 
                                       0.0                   0.0                   0.0                   0.0                   0.0                   0.0                   0.0                   0.0                   0.0                   0.0                   0.0                   0.0                   0.0                   0.0                   0.0                   0.0   0.33404913668865804   -86.815274997160728 
                       0.33404913668865804   -86.815274997160742   0.33404913668865804   -86.815274997160742   0.33404913668865799   -86.815274997167251   0.33404913668865799   -86.815274997167251   0.33404913668865799   -86.815274997167251   0.33404913668865799   -86.815274997167251   0.33404913668865804   -86.815274997160742   0.33404913668865804   -86.815274997160742 0.0030432975530527316    130.13593796363429 
189761.27835730201                     0.0                   0.0                   0.0                   0.0                   0.0                   0.0                   0.0                   0.0                   0.0                   0.0                   0.0                   0.0                   0.0                   0.0                   0.0                   0.0    0.3340526685196214   -76.020103340624729 
                                       0.0                   0.0                   0.0                   0.0                   0.0                   0.0                   0.0                   0.0                   0.0                   0.0                   0.0                   0.0                   0.0                   0.0                   0.0                   0.0    0.3340526685196214   -76.020103340624729 
                                       0.0                   0.0                   0.0                   0.0                   0.0                   0.0                   0.0                   0.0                   0.0                   0.0                   0.0                   0.0                   0.0                   0.0                   0.0                   0.0   0.33405266851962145    -76.02010334063776 
                                       0.0                   0.0                   0.0                   0.0                   0.0                   0.0                   0.0                   0.0                   0.0                   0.0                   0.0                   0.0                   0.0                   0.0                   0.0                   0.0   0.33405266851962145    -76.02010334063776 
                                       0.0                   0.0                   0.0                   0.0                   0.0                   0.0                   0.0                   0.0                   0.0                   0.0                   0.0                   0.0                   0.0                   0.0                   0.0                   0.0   0.33405266851962145    -76.02010334063776 
                                       0.0                   0.0                   0.0                   0.0                   0.0                   0.0                   0.0                   0.0                   0.0                   0.0                   0.0                   0.0                   0.0                   0.0                   0.0                   0.0   0.33405266851962145    -76.02010334063776 
                                       0.0                   0.0                   0.0                   0.0                   0.0                   0.0                   0.0                   0.0                   0.0                   0.0                   0.0                   0.0                   0.0                   0.0                   0.0                   0.0    0.3340526685196214   -76.020103340624729 
                                       0.0                   0.0                   0.0                   0.0                   0.0                   0.0                   0.0                   0.0                   0.0                   0.0                   0.0                   0.0                   0.0                   0.0                   0.0                   0.0    0.3340526685196214   -76.020103340624729 
                        0.3340526685196214   -76.020103340624729    0.3340526685196214   -76.020103340624729   0.33405266851962151    -76.02010334063776   0.33405266851962151    -76.02010334063776   0.33405266851962151    -76.02010334063776   0.33405266851962151    -76.02010334063776    0.3340526685196214   -76.020103340624729    0.3340526685196214   -76.020103340624729 0.0021871610874357283    164.41859151711304 
189770.88798298474                     0.0                   0.0                   0.0                   0.0                   0.0                   0.0                   0.0                   0.0                   0.0                   0.0                   0.0                   0.0                   0.0                   0.0                   0.0                   0.0   0.33405616768796836   -65.223912815897961 
                                       0.0                   0.0                   0.0                   0.0                   0.0                   0.0                   0.0                   0.0                   0.0                   0.0                   0.0                   0.0                   0.0                   0.0                   0.0                   0.0   0.33405616768796836   -65.223912815897961 
                                       0.0                   0.0                   0.0                   0.0                   0.0                   0.0                   0.0                   0.0                   0.0                   0.0                   0.0                   0.0                   0.0                   0.0                   0.0                   0.0   0.33405616768796825    -65.22391281590447 
                                       0.0                   0.0                   0.0                   0.0                   0.0                   0.0                   0.0                   0.0                   0.0                   0.0                   0.0                   0.0                   0.0                   0.0                   0.0                   0.0   0.33405616768796825    -65.22391281590447 
                                       0.0                   0.0                   0.0                   0.0                   0.0                   0.0                   0.0                   0.0                   0.0                   0.0                   0.0                   0.0                   0.0                   0.0                   0.0                   0.0   0.33405616768796825    -65.22391281590447 
                                       0.0                   0.0                   0.0                   0.0                   0.0                   0.0                   0.0                   0.0                   0.0                   0.0                   0.0                   0.0                   0.0                   0.0                   0.0                   0.0   0.33405616768796825    -65.22391281590447 
                                       0.0                   0.0                   0.0                   0.0                   0.0                   0.0                   0.0                   0.0                   0.0                   0.0                   0.0                   0.0                   0.0                   0.0                   0.0                   0.0   0.33405616768796836   -65.223912815897961 
                                       0.0                   0.0                   0.0                   0.0                   0.0                   0.0                   0.0                   0.0                   0.0                   0.0                   0.0                   0.0                   0.0                   0.0                   0.0                   0.0   0.33405616768796836   -65.223912815897961 
                       0.33405616768796842   -65.223912815897961   0.33405616768796842   -65.223912815897961   0.33405616768796831    -65.22391281590447   0.33405616768796831    -65.22391281590447   0.33405616768796831    -65.22391281590447   0.33405616768796831    -65.22391281590447   0.33405616768796842   -65.223912815897961   0.33405616768796842   -65.223912815897961 0.0019962700579972716   -148.85725480509961 
189780.49858199127                     0.0                   0.0                   0.0                   0.0                   0.0                   0.0                   0.0                   0.0                   0.0                   0.0                   0.0                   0.0                   0.0                   0.0                   0.0                   0.0   0.33405963449712289   -54.426703268278224 
                                       0.0                   0.0                   0.0                   0.0                   0.0                   0.0                   0.0                   0.0                   0.0                   0.0                   0.0                   0.0                   0.0                   0.0                   0.0                   0.0   0.33405963449712289   -54.426703268278224 
                                       0.0                   0.0                   0.0                   0.0                   0.0                   0.0                   0.0                   0.0                   0.0                   0.0                   0.0                   0.0                   0.0                   0.0                   0.0                   0.0   0.33405963449712295    -54.42670326828474 
                                       0.0                   0.0                   0.0                   0.0                   0.0                   0.0                   0.0                   0.0                   0.0                   0.0                   0.0                   0.0                   0.0                   0.0                   0.0                   0.0   0.33405963449712295    -54.42670326828474 
                                       0.0                   0.0                   0.0                   0.0                   0.0                   0.0                   0.0                   0.0                   0.0                   0.0                   0.0                   0.0                   0.0                   0.0                   0.0                   0.0   0.33405963449712295    -54.42670326828474 
                                       0.0                   0.0                   0.0                   0.0                   0.0                   0.0                   0.0                   0.0                   0.0                   0.0                   0.0                   0.0                   0.0                   0.0                   0.0                   0.0   0.33405963449712295    -54.42670326828474 
                                       0.0                   0.0                   0.0                   0.0                   0.0                   0.0                   0.0                   0.0                   0.0                   0.0                   0.0                   0.0                   0.0                   0.0                   0.0                   0.0   0.33405963449712289   -54.426703268278224 
                                       0.0                   0.0                   0.0                   0.0                   0.0                   0.0                   0.0                   0.0                   0.0                   0.0                   0.0                   0.0                   0.0                   0.0                   0.0                   0.0   0.33405963449712289   -54.426703268278224 
                       0.33405963449712289   -54.426703268278224   0.33405963449712289   -54.426703268278224     0.334059634497123   -54.426703268284733     0.334059634497123   -54.426703268284733     0.334059634497123   -54.426703268284733     0.334059634497123   -54.426703268284733   0.33405963449712289   -54.426703268278224   0.33405963449712289   -54.426703268278224 0.0025153475060793943   -109.94303521262219 
189790.11015446947                     0.0                   0.0                   0.0                   0.0                   0.0                   0.0                   0.0                   0.0                   0.0                   0.0                   0.0                   0.0                   0.0                   0.0                   0.0                   0.0   0.33406306924901413   -43.628474542933077 
                                       0.0                   0.0                   0.0                   0.0                   0.0                   0.0                   0.0                   0.0                   0.0                   0.0                   0.0                   0.0                   0.0                   0.0                   0.0                   0.0   0.33406306924901413   -43.628474542933077 
